T3CCC 000:001.310   SEGGER J-Link V8.44a Log File
T3CCC 000:001.643   DLL Compiled: Jun 18 2025 16:28:32
T3CCC 000:001.668   Logging started @ 2025-10-10 12:33
T3CCC 000:001.691   Process: C:\Users\sujingliang\.eclipse\com.renesas.platform_1713588285\DebugComp\RA\e2-server-gdb.exe
T3CCC 000:001.726 - 1.712ms 
T3CCC 000:001.767 JLINK_GetDLLVersion()
T3CCC 000:001.796 - 0.028ms returns 84401
T3CCC 000:006.895 JLINK_OpenEx(...)
T3CCC 000:019.893   Firmware: J-Link OB-RA4M2-CortexM compiled Apr  1 2025 10:13:59
T3CCC 000:020.896   Firmware: J-Link OB-RA4M2-CortexM compiled Apr  1 2025 10:13:59
T3CCC 000:032.649   Hardware: V1.00
T3CCC 000:032.688   S/N: 1100016572
T3CCC 000:032.719   OEM: SEGGER
T3CCC 000:032.757   Feature(s): None
T3CCC 000:033.693   Bootloader: 2023 Apr 26
T3CCC 000:034.464   USB speed mode: Full speed (12 MBit/s)
T3CCC 000:035.133   TELNET listener socket opened on port 19021
T3CCC 000:035.726   WEBSRV WEBSRV_Init(): Starting webserver thread(s)
T3CCC 000:036.176   WEBSRV Webserver running on local port 19080
T3CCC 000:036.672   Looking for J-Link GUI Server exe at: C:\Users\sujingliang\.eclipse\com.renesas.platform_1713588285\DebugComp\RA\ARM\Segger_v8.44.1\JLinkGUIServer.exe
T3CCC 000:037.218   Looking for J-Link GUI Server exe at: C:\Program Files\SEGGER\JLink_V830\JLinkGUIServer.exe
T3CCC 000:037.433   Forking J-Link GUI Server: C:\Program Files\SEGGER\JLink_V830\JLinkGUIServer.exe
T3CCC 000:101.487   J-Link GUI Server info: "J-Link GUI server V8.30 "
T3CCC 000:107.938 - 101.031ms returns "O.K."
T3CCC 000:108.099 JLINK_TIF_Select(JLINKARM_TIF_SWD)
T3CCC 000:109.046 - 0.946ms returns 0x00
T3CCC 000:109.091 JLINK_ClrRESET()
T3CCC 000:109.454 - 0.363ms 
T3CCC 000:159.645 JLINK_SetSpeed(1500)
T3CCC 000:159.897 - 0.265ms 
T3CCC 000:159.932 JLINK_CORESIGHT_Configure(PerformTIFInit=0)
T3CCC 000:160.385 - 0.453ms returns 0
T3CCC 000:160.433 JLINK_CORESIGHT_ReadAPDPReg(DP reg 0x00)
T3CCC 000:160.911   Value=0x6BA02477
T3CCC 000:160.949 - 0.521ms returns 0
T3CCC 000:160.983 JLINK_CORESIGHT_WriteAPDPReg(DP reg 0x00, 0x0000001F)
T3CCC 000:161.265 - 0.282ms returns 0
T3CCC 000:161.297 JLINK_CORESIGHT_ReadAPDPReg(DP reg 0x00)
T3CCC 000:161.582   Value=0x6BA02477
T3CCC 000:161.623 - 0.325ms returns 0
T3CCC 000:161.653 JLINK_CORESIGHT_WriteAPDPReg(DP reg 0x02, 0x00000000)
T3CCC 000:161.984 - 0.330ms returns 0
T3CCC 000:162.019 JLINK_CORESIGHT_WriteAPDPReg(DP reg 0x01, 0x50000000)
T3CCC 000:162.305 - 0.282ms returns 0
T3CCC 000:163.057 JLINK_CORESIGHT_ReadAPDPReg(DP reg 0x01)
T3CCC 000:163.362   Value=0xF0000040
T3CCC 000:163.399 - 0.342ms returns 0
T3CCC 000:163.426 JLINK_CORESIGHT_WriteAPDPReg(DP reg 0x00, 0x0000001F)
T3CCC 000:163.703 - 0.277ms returns 0
T3CCC 000:163.737 JLINK_CORESIGHT_ReadAPDPReg(DP reg 0x00)
T3CCC 000:164.020   Value=0x6BA02477
T3CCC 000:164.055 - 0.317ms returns 0
T3CCC 000:164.082 JLINK_CORESIGHT_WriteAPDPReg(DP reg 0x01, 0x54000000)
T3CCC 000:164.378 - 0.296ms returns 0
T3CCC 000:164.409 JLINK_CORESIGHT_WriteAPDPReg(DP reg 0x01, 0x50000F00)
T3CCC 000:164.668 - 0.258ms returns 0
T3CCC 000:164.699 JLINK_CORESIGHT_WriteAPDPReg(DP reg 0x02, 0x01000000)
T3CCC 000:164.969 - 0.268ms returns 0
T3CCC 000:165.001 JLINK_CORESIGHT_WriteAPDPReg(AP reg 0x00, 0x80000002)
T3CCC 000:165.314 - 0.312ms returns 0
T3CCC 000:165.346 JLINK_CORESIGHT_WriteAPDPReg(AP reg 0x01, 0x80011100)
T3CCC 000:165.616 - 0.270ms returns 0
T3CCC 000:165.647 JLINK_CORESIGHT_WriteAPDPReg(AP reg 0x03, 0x000000A5)
T3CCC 000:165.928 - 0.281ms returns 0
T3CCC 000:165.960 JLINK_CORESIGHT_WriteAPDPReg(AP reg 0x00, 0x80000002)
T3CCC 000:166.244 - 0.283ms returns 0
T3CCC 000:166.276 JLINK_CORESIGHT_WriteAPDPReg(AP reg 0x01, 0x80011100)
T3CCC 000:166.559 - 0.282ms returns 0
T3CCC 000:166.592 JLINK_CORESIGHT_ReadAPDPReg(AP reg 0x03)
T3CCC 000:166.911   Value=0x000000A5
T3CCC 000:166.948 - 0.355ms returns 0
T3CCC 000:166.974 JLINK_ClrTMS()
T3CCC 000:167.114 - 0.139ms 
T3CCC 000:172.627 JLINK_SetTCK()
T3CCC 000:172.791 - 0.164ms returns 0
T3CCC 000:178.631 JLINK_SetRESET()
T3CCC 000:178.790 - 0.158ms 
T3CCC 000:379.680 JLINK_CORESIGHT_WriteAPDPReg(AP reg 0x00, 0x80000002)
T3CCC 000:380.137 - 0.458ms returns 0
T3CCC 000:380.204 JLINK_CORESIGHT_WriteAPDPReg(AP reg 0x01, 0x80011100)
T3CCC 000:380.649 - 0.446ms returns 0
T3CCC 000:380.715 JLINK_CORESIGHT_ReadAPDPReg(AP reg 0x03)
T3CCC 000:381.170   Value=0x00000000
T3CCC 000:381.247 - 0.531ms returns 0
T3CCC 000:381.305 JLINK_CORESIGHT_WriteAPDPReg(AP reg 0x00, 0x80000002)
T3CCC 000:381.711 - 0.406ms returns 0
T3CCC 000:381.778 JLINK_CORESIGHT_WriteAPDPReg(AP reg 0x01, 0x80011140)
T3CCC 000:382.175 - 0.397ms returns 0
T3CCC 000:382.244 JLINK_CORESIGHT_ReadAPDPReg(AP reg 0x03)
T3CCC 000:382.700   Value=0x00000002
T3CCC 000:382.777 - 0.532ms returns 0
T3CCC 000:382.834 JLINK_CORESIGHT_WriteAPDPReg(AP reg 0x00, 0x80000002)
T3CCC 000:383.229 - 0.395ms returns 0
T3CCC 000:383.296 JLINK_CORESIGHT_WriteAPDPReg(AP reg 0x01, 0x80011120)
T3CCC 000:383.702 - 0.406ms returns 0
T3CCC 000:383.768 JLINK_CORESIGHT_WriteAPDPReg(AP reg 0x03, 0x00000055)
T3CCC 000:384.173 - 0.405ms returns 0
T3CCC 000:384.240 JLINK_CORESIGHT_WriteAPDPReg(AP reg 0x00, 0x80000002)
T3CCC 000:384.720 - 0.480ms returns 0
T3CCC 000:384.786 JLINK_CORESIGHT_WriteAPDPReg(AP reg 0x01, 0x80011140)
T3CCC 000:385.192 - 0.405ms returns 0
T3CCC 000:385.260 JLINK_CORESIGHT_ReadAPDPReg(AP reg 0x03)
T3CCC 000:385.715   Value=0x00000000
T3CCC 000:385.791 - 0.531ms returns 0
T3CCC 000:385.849 JLINK_CORESIGHT_WriteAPDPReg(AP reg 0x00, 0x80000002)
T3CCC 000:386.242 - 0.392ms returns 0
T3CCC 000:386.308 JLINK_CORESIGHT_WriteAPDPReg(AP reg 0x01, 0x80011130)
T3CCC 000:386.708 - 0.400ms returns 0
T3CCC 000:386.773 JLINK_CORESIGHT_ReadAPDPReg(AP reg 0x03)
T3CCC 000:387.220   Value=0x000000C6
T3CCC 000:387.297 - 0.523ms returns 0
T3CCC 000:387.362 JLINK_CORESIGHT_WriteAPDPReg(AP reg 0x00, 0x80000002)
T3CCC 000:387.770 - 0.408ms returns 0
T3CCC 000:387.837 JLINK_CORESIGHT_WriteAPDPReg(AP reg 0x01, 0x80011140)
T3CCC 000:388.240 - 0.404ms returns 0
T3CCC 000:388.309 JLINK_CORESIGHT_ReadAPDPReg(AP reg 0x03)
T3CCC 000:388.815   Value=0x00000002
T3CCC 000:388.892 - 0.583ms returns 0
T3CCC 000:388.949 JLINK_CORESIGHT_WriteAPDPReg(AP reg 0x00, 0x80000002)
T3CCC 000:389.329 - 0.379ms returns 0
T3CCC 000:389.395 JLINK_CORESIGHT_WriteAPDPReg(AP reg 0x01, 0x80011120)
T3CCC 000:389.800 - 0.404ms returns 0
T3CCC 000:389.866 JLINK_CORESIGHT_WriteAPDPReg(AP reg 0x03, 0x3A010001)
T3CCC 000:390.270 - 0.404ms returns 0
T3CCC 000:390.337 JLINK_CORESIGHT_WriteAPDPReg(AP reg 0x00, 0x80000002)
T3CCC 000:390.742 - 0.405ms returns 0
T3CCC 000:390.809 JLINK_CORESIGHT_WriteAPDPReg(AP reg 0x01, 0x80011140)
T3CCC 000:391.212 - 0.403ms returns 0
T3CCC 000:391.280 JLINK_CORESIGHT_ReadAPDPReg(AP reg 0x03)
T3CCC 000:391.741   Value=0x00000002
T3CCC 000:391.817 - 0.536ms returns 0
T3CCC 000:391.875 JLINK_CORESIGHT_WriteAPDPReg(AP reg 0x00, 0x80000002)
T3CCC 000:392.305 - 0.429ms returns 0
T3CCC 000:392.371 JLINK_CORESIGHT_WriteAPDPReg(AP reg 0x01, 0x80011120)
T3CCC 000:392.768 - 0.397ms returns 0
T3CCC 000:392.835 JLINK_CORESIGHT_WriteAPDPReg(AP reg 0x03, 0x000003C5)
T3CCC 000:393.273 - 0.438ms returns 0
T3CCC 000:393.340 JLINK_CORESIGHT_WriteAPDPReg(AP reg 0x00, 0x80000002)
T3CCC 000:393.729 - 0.389ms returns 0
T3CCC 000:393.796 JLINK_CORESIGHT_WriteAPDPReg(AP reg 0x01, 0x80011140)
T3CCC 000:394.197 - 0.401ms returns 0
T3CCC 000:394.266 JLINK_CORESIGHT_ReadAPDPReg(AP reg 0x03)
T3CCC 000:394.715   Value=0x00000002
T3CCC 000:394.792 - 0.526ms returns 0
T3CCC 000:394.849 JLINK_CORESIGHT_ReadAPDPReg(AP reg 0x03)
T3CCC 000:395.301   Value=0x00000000
T3CCC 000:395.377 - 0.528ms returns 0
T3CCC 000:395.435 JLINK_CORESIGHT_WriteAPDPReg(AP reg 0x00, 0x80000002)
T3CCC 000:395.840 - 0.405ms returns 0
T3CCC 000:395.906 JLINK_CORESIGHT_WriteAPDPReg(AP reg 0x01, 0x80011130)
T3CCC 000:396.303 - 0.396ms returns 0
T3CCC 000:396.368 JLINK_CORESIGHT_ReadAPDPReg(AP reg 0x03)
T3CCC 000:396.817   Value=0x3A2A0081
T3CCC 000:396.893 - 0.524ms returns 0
T3CCC 000:396.955 JLINK_CORESIGHT_WriteAPDPReg(AP reg 0x00, 0x80000002)
T3CCC 000:397.368 - 0.412ms returns 0
T3CCC 000:397.450 JLINK_CORESIGHT_WriteAPDPReg(AP reg 0x01, 0x80011140)
T3CCC 000:397.857 - 0.406ms returns 0
T3CCC 000:397.930 JLINK_CORESIGHT_ReadAPDPReg(AP reg 0x03)
T3CCC 000:398.469   Value=0x00000000
T3CCC 000:398.547 - 0.616ms returns 0
T3CCC 000:398.615 JLINK_CORESIGHT_WriteAPDPReg(AP reg 0x00, 0x80000002)
T3CCC 000:399.051 - 0.437ms returns 0
T3CCC 000:399.123 JLINK_CORESIGHT_WriteAPDPReg(AP reg 0x01, 0x80011130)
T3CCC 000:399.556 - 0.431ms returns 0
T3CCC 000:399.631 JLINK_CORESIGHT_ReadAPDPReg(AP reg 0x03)
T3CCC 000:400.083   Value=0x808D5B00
T3CCC 000:400.160 - 0.528ms returns 0
T3CCC 000:400.221 JLINK_CORESIGHT_WriteAPDPReg(AP reg 0x00, 0x80000002)
T3CCC 000:400.618 - 0.397ms returns 0
T3CCC 000:400.690 JLINK_CORESIGHT_WriteAPDPReg(AP reg 0x01, 0x80011140)
T3CCC 000:401.077 - 0.387ms returns 0
T3CCC 000:401.151 JLINK_CORESIGHT_ReadAPDPReg(AP reg 0x03)
T3CCC 000:401.653   Value=0x00000000
T3CCC 000:401.732 - 0.580ms returns 0
T3CCC 000:401.797 JLINK_CORESIGHT_WriteAPDPReg(AP reg 0x00, 0x80000002)
T3CCC 000:402.192 - 0.394ms returns 0
T3CCC 000:402.264 JLINK_CORESIGHT_WriteAPDPReg(AP reg 0x01, 0x80011130)
T3CCC 000:402.681 - 0.417ms returns 0
T3CCC 000:402.752 JLINK_CORESIGHT_ReadAPDPReg(AP reg 0x03)
T3CCC 000:403.199   Value=0x0603030B
T3CCC 000:403.275 - 0.523ms returns 0
T3CCC 000:403.336 JLINK_CORESIGHT_WriteAPDPReg(AP reg 0x00, 0x80000002)
T3CCC 000:403.720 - 0.383ms returns 0
T3CCC 000:403.791 JLINK_CORESIGHT_WriteAPDPReg(AP reg 0x01, 0x80011140)
T3CCC 000:404.196 - 0.404ms returns 0
T3CCC 000:404.270 JLINK_CORESIGHT_ReadAPDPReg(AP reg 0x03)
T3CCC 000:404.714   Value=0x00000000
T3CCC 000:404.791 - 0.521ms returns 0
T3CCC 000:404.854 JLINK_CORESIGHT_WriteAPDPReg(AP reg 0x00, 0x80000002)
T3CCC 000:405.256 - 0.401ms returns 0
T3CCC 000:405.328 JLINK_CORESIGHT_WriteAPDPReg(AP reg 0x01, 0x80011130)
T3CCC 000:405.780 - 0.452ms returns 0
T3CCC 000:405.852 JLINK_CORESIGHT_ReadAPDPReg(AP reg 0x03)
T3CCC 000:406.318   Value=0x2F4B4E20
T3CCC 000:406.395 - 0.543ms returns 0
T3CCC 000:406.456 JLINK_CORESIGHT_WriteAPDPReg(AP reg 0x00, 0x80000002)
T3CCC 000:406.863 - 0.407ms returns 0
T3CCC 000:406.935 JLINK_CORESIGHT_WriteAPDPReg(AP reg 0x01, 0x80011140)
T3CCC 000:407.342 - 0.407ms returns 0
T3CCC 000:407.416 JLINK_CORESIGHT_ReadAPDPReg(AP reg 0x03)
T3CCC 000:407.858   Value=0x00000000
T3CCC 000:407.935 - 0.519ms returns 0
T3CCC 000:407.998 JLINK_CORESIGHT_WriteAPDPReg(AP reg 0x00, 0x80000002)
T3CCC 000:408.444 - 0.445ms returns 0
T3CCC 000:408.516 JLINK_CORESIGHT_WriteAPDPReg(AP reg 0x01, 0x80011130)
T3CCC 000:408.937 - 0.421ms returns 0
T3CCC 000:409.008 JLINK_CORESIGHT_ReadAPDPReg(AP reg 0x03)
T3CCC 000:409.457   Value=0x4BECAA50
T3CCC 000:409.534 - 0.526ms returns 0
T3CCC 000:409.599 JLINK_CORESIGHT_WriteAPDPReg(AP reg 0x00, 0x80000002)
T3CCC 000:410.007 - 0.408ms returns 0
T3CCC 000:410.079 JLINK_CORESIGHT_WriteAPDPReg(AP reg 0x01, 0x80011140)
T3CCC 000:410.514 - 0.434ms returns 0
T3CCC 000:410.591 JLINK_CORESIGHT_ReadAPDPReg(AP reg 0x03)
T3CCC 000:411.048   Value=0x00000000
T3CCC 000:411.124 - 0.532ms returns 0
T3CCC 000:411.188 JLINK_CORESIGHT_WriteAPDPReg(AP reg 0x00, 0x80000002)
T3CCC 000:411.597 - 0.409ms returns 0
T3CCC 000:411.670 JLINK_CORESIGHT_WriteAPDPReg(AP reg 0x01, 0x80011130)
T3CCC 000:412.067 - 0.396ms returns 0
T3CCC 000:412.138 JLINK_CORESIGHT_ReadAPDPReg(AP reg 0x03)
T3CCC 000:412.604   Value=0x38363553
T3CCC 000:412.681 - 0.543ms returns 0
T3CCC 000:412.742 JLINK_CORESIGHT_WriteAPDPReg(AP reg 0x00, 0x80000002)
T3CCC 000:413.146 - 0.404ms returns 0
T3CCC 000:413.218 JLINK_CORESIGHT_WriteAPDPReg(AP reg 0x01, 0x80011140)
T3CCC 000:413.625 - 0.407ms returns 0
T3CCC 000:413.699 JLINK_CORESIGHT_ReadAPDPReg(AP reg 0x03)
T3CCC 000:414.139   Value=0x00000000
T3CCC 000:414.216 - 0.517ms returns 0
T3CCC 000:414.279 JLINK_CORESIGHT_WriteAPDPReg(AP reg 0x00, 0x80000002)
T3CCC 000:414.687 - 0.407ms returns 0
T3CCC 000:414.759 JLINK_CORESIGHT_WriteAPDPReg(AP reg 0x01, 0x80011130)
T3CCC 000:415.179 - 0.420ms returns 0
T3CCC 000:415.257 JLINK_CORESIGHT_ReadAPDPReg(AP reg 0x03)
T3CCC 000:415.706   Value=0x61064335
T3CCC 000:415.783 - 0.525ms returns 0
T3CCC 000:415.844 JLINK_CORESIGHT_WriteAPDPReg(AP reg 0x00, 0x80000002)
T3CCC 000:416.248 - 0.405ms returns 0
T3CCC 000:416.320 JLINK_CORESIGHT_WriteAPDPReg(AP reg 0x01, 0x80011140)
T3CCC 000:416.729 - 0.408ms returns 0
T3CCC 000:416.803 JLINK_CORESIGHT_ReadAPDPReg(AP reg 0x03)
T3CCC 000:417.255   Value=0x00000000
T3CCC 000:417.333 - 0.528ms returns 0
T3CCC 000:417.396 JLINK_CORESIGHT_WriteAPDPReg(AP reg 0x00, 0x80000002)
T3CCC 000:417.790 - 0.393ms returns 0
T3CCC 000:417.863 JLINK_CORESIGHT_WriteAPDPReg(AP reg 0x01, 0x80011130)
T3CCC 000:418.249 - 0.386ms returns 0
T3CCC 000:418.321 JLINK_CORESIGHT_ReadAPDPReg(AP reg 0x03)
T3CCC 000:418.842   Value=0x4637526B
T3CCC 000:418.919 - 0.598ms returns 0
T3CCC 000:418.980 JLINK_CORESIGHT_WriteAPDPReg(AP reg 0x00, 0x80000002)
T3CCC 000:419.378 - 0.398ms returns 0
T3CCC 000:419.450 JLINK_CORESIGHT_WriteAPDPReg(AP reg 0x01, 0x80011140)
T3CCC 000:419.861 - 0.411ms returns 0
T3CCC 000:419.935 JLINK_CORESIGHT_ReadAPDPReg(AP reg 0x03)
T3CCC 000:420.472   Value=0x00000000
T3CCC 000:420.552 - 0.617ms returns 0
T3CCC 000:420.620 JLINK_CORESIGHT_WriteAPDPReg(AP reg 0x00, 0x80000002)
T3CCC 000:421.026 - 0.406ms returns 0
T3CCC 000:421.098 JLINK_CORESIGHT_WriteAPDPReg(AP reg 0x01, 0x80011130)
T3CCC 000:421.556 - 0.458ms returns 0
T3CCC 000:421.632 JLINK_CORESIGHT_ReadAPDPReg(AP reg 0x03)
T3CCC 000:422.081   Value=0x31443841
T3CCC 000:422.157 - 0.526ms returns 0
T3CCC 000:422.218 JLINK_CORESIGHT_WriteAPDPReg(AP reg 0x00, 0x80000002)
T3CCC 000:422.692 - 0.471ms returns 0
T3CCC 000:422.758 JLINK_CORESIGHT_WriteAPDPReg(AP reg 0x01, 0x80011140)
T3CCC 000:423.122 - 0.365ms returns 0
T3CCC 000:423.168 JLINK_CORESIGHT_ReadAPDPReg(AP reg 0x03)
T3CCC 000:423.570   Value=0x00000000
T3CCC 000:423.619 - 0.451ms returns 0
T3CCC 000:423.658 JLINK_CORESIGHT_WriteAPDPReg(AP reg 0x00, 0x80000002)
T3CCC 000:423.971 - 0.312ms returns 0
T3CCC 000:424.015 JLINK_CORESIGHT_WriteAPDPReg(AP reg 0x01, 0x80011130)
T3CCC 000:424.329 - 0.314ms returns 0
T3CCC 000:424.373 JLINK_CORESIGHT_ReadAPDPReg(AP reg 0x03)
T3CCC 000:424.736   Value=0x43454842
T3CCC 000:424.782 - 0.409ms returns 0
T3CCC 000:424.819 JLINK_CORESIGHT_WriteAPDPReg(AP reg 0x00, 0x80000002)
T3CCC 000:425.136 - 0.317ms returns 0
T3CCC 000:425.180 JLINK_CORESIGHT_WriteAPDPReg(AP reg 0x01, 0x80011140)
T3CCC 000:425.527 - 0.346ms returns 0
T3CCC 000:425.576 JLINK_CORESIGHT_ReadAPDPReg(AP reg 0x03)
T3CCC 000:425.945   Value=0x00000000
T3CCC 000:425.992 - 0.415ms returns 0
T3CCC 000:426.031 JLINK_CORESIGHT_WriteAPDPReg(AP reg 0x00, 0x80000002)
T3CCC 000:426.352 - 0.321ms returns 0
T3CCC 000:426.396 JLINK_CORESIGHT_WriteAPDPReg(AP reg 0x01, 0x80011130)
T3CCC 000:426.717 - 0.321ms returns 0
T3CCC 000:426.761 JLINK_CORESIGHT_ReadAPDPReg(AP reg 0x03)
T3CCC 000:427.126   Value=0x20204442
T3CCC 000:427.172 - 0.411ms returns 0
T3CCC 000:427.210 JLINK_CORESIGHT_WriteAPDPReg(AP reg 0x00, 0x80000002)
T3CCC 000:427.540 - 0.330ms returns 0
T3CCC 000:427.586 JLINK_CORESIGHT_WriteAPDPReg(AP reg 0x01, 0x80011140)
T3CCC 000:427.902 - 0.316ms returns 0
T3CCC 000:427.948 JLINK_CORESIGHT_ReadAPDPReg(AP reg 0x03)
T3CCC 000:428.323   Value=0x00000000
T3CCC 000:428.369 - 0.421ms returns 0
T3CCC 000:428.408 JLINK_CORESIGHT_WriteAPDPReg(AP reg 0x00, 0x80000002)
T3CCC 000:428.720 - 0.311ms returns 0
T3CCC 000:428.764 JLINK_CORESIGHT_WriteAPDPReg(AP reg 0x01, 0x80011130)
T3CCC 000:429.079 - 0.315ms returns 0
T3CCC 000:429.122 JLINK_CORESIGHT_ReadAPDPReg(AP reg 0x03)
T3CCC 000:429.489   Value=0x00030F20
T3CCC 000:429.535 - 0.413ms returns 0
T3CCC 000:430.525 JLINK_CORESIGHT_WriteAPDPReg(AP reg 0x00, 0x80000002)
T3CCC 000:430.853 - 0.327ms returns 0
T3CCC 000:430.893 JLINK_CORESIGHT_WriteAPDPReg(AP reg 0x01, 0x80011140)
T3CCC 000:431.205 - 0.311ms returns 0
T3CCC 000:431.247 JLINK_CORESIGHT_ReadAPDPReg(AP reg 0x03)
T3CCC 000:431.633   Value=0x00000002
T3CCC 000:431.812 - 0.565ms returns 0
T3CCC 000:431.848 JLINK_CORESIGHT_WriteAPDPReg(AP reg 0x00, 0x80000002)
T3CCC 000:432.168 - 0.320ms returns 0
T3CCC 000:432.209 JLINK_CORESIGHT_WriteAPDPReg(AP reg 0x01, 0x80011120)
T3CCC 000:432.522 - 0.313ms returns 0
T3CCC 000:432.567 JLINK_CORESIGHT_WriteAPDPReg(AP reg 0x03, 0x2C010001)
T3CCC 000:432.884 - 0.317ms returns 0
T3CCC 000:432.925 JLINK_CORESIGHT_WriteAPDPReg(AP reg 0x00, 0x80000002)
T3CCC 000:433.243 - 0.318ms returns 0
T3CCC 000:433.283 JLINK_CORESIGHT_WriteAPDPReg(AP reg 0x01, 0x80011140)
T3CCC 000:433.599 - 0.315ms returns 0
T3CCC 000:433.641 JLINK_CORESIGHT_ReadAPDPReg(AP reg 0x03)
T3CCC 000:434.052   Value=0x00000002
T3CCC 000:434.098 - 0.457ms returns 0
T3CCC 000:434.133 JLINK_CORESIGHT_WriteAPDPReg(AP reg 0x00, 0x80000002)
T3CCC 000:434.445 - 0.311ms returns 0
T3CCC 000:434.486 JLINK_CORESIGHT_WriteAPDPReg(AP reg 0x01, 0x80011120)
T3CCC 000:434.804 - 0.317ms returns 0
T3CCC 000:434.845 JLINK_CORESIGHT_WriteAPDPReg(AP reg 0x03, 0x000003D3)
T3CCC 000:435.169 - 0.324ms returns 0
T3CCC 000:435.210 JLINK_CORESIGHT_WriteAPDPReg(AP reg 0x00, 0x80000002)
T3CCC 000:435.530 - 0.321ms returns 0
T3CCC 000:435.573 JLINK_CORESIGHT_WriteAPDPReg(AP reg 0x01, 0x80011140)
T3CCC 000:435.900 - 0.326ms returns 0
T3CCC 000:435.942 JLINK_CORESIGHT_ReadAPDPReg(AP reg 0x03)
T3CCC 000:436.300   Value=0x00000002
T3CCC 000:436.347 - 0.405ms returns 0
T3CCC 000:436.381 JLINK_CORESIGHT_ReadAPDPReg(AP reg 0x03)
T3CCC 000:436.736   Value=0x00000002
T3CCC 000:436.783 - 0.401ms returns 0
T3CCC 000:436.817 JLINK_CORESIGHT_ReadAPDPReg(AP reg 0x03)
T3CCC 000:437.206   Value=0x00000002
T3CCC 000:437.253 - 0.435ms returns 0
T3CCC 000:437.287 JLINK_CORESIGHT_ReadAPDPReg(AP reg 0x03)
T3CCC 000:437.657   Value=0x00000002
T3CCC 000:437.703 - 0.416ms returns 0
T3CCC 000:437.738 JLINK_CORESIGHT_ReadAPDPReg(AP reg 0x03)
T3CCC 000:438.088   Value=0x00000002
T3CCC 000:438.135 - 0.396ms returns 0
T3CCC 000:438.169 JLINK_CORESIGHT_ReadAPDPReg(AP reg 0x03)
T3CCC 000:438.573   Value=0x00000002
T3CCC 000:438.619 - 0.449ms returns 0
T3CCC 000:438.654 JLINK_CORESIGHT_ReadAPDPReg(AP reg 0x03)
T3CCC 000:439.006   Value=0x00000002
T3CCC 000:439.053 - 0.399ms returns 0
T3CCC 000:439.087 JLINK_CORESIGHT_ReadAPDPReg(AP reg 0x03)
T3CCC 000:439.445   Value=0x00000000
T3CCC 000:439.492 - 0.404ms returns 0
T3CCC 000:439.527 JLINK_CORESIGHT_WriteAPDPReg(AP reg 0x00, 0x80000002)
T3CCC 000:439.843 - 0.316ms returns 0
T3CCC 000:439.884 JLINK_CORESIGHT_WriteAPDPReg(AP reg 0x01, 0x80011130)
T3CCC 000:440.198 - 0.314ms returns 0
T3CCC 000:440.238 JLINK_CORESIGHT_ReadAPDPReg(AP reg 0x03)
T3CCC 000:440.597   Value=0x2C020081
T3CCC 000:440.644 - 0.405ms returns 0
T3CCC 000:440.677 JLINK_CORESIGHT_WriteAPDPReg(AP reg 0x00, 0x80000002)
T3CCC 000:440.992 - 0.314ms returns 0
T3CCC 000:441.032 JLINK_CORESIGHT_WriteAPDPReg(AP reg 0x01, 0x80011140)
T3CCC 000:441.344 - 0.311ms returns 0
T3CCC 000:441.385 JLINK_CORESIGHT_ReadAPDPReg(AP reg 0x03)
T3CCC 000:441.758   Value=0x00000000
T3CCC 000:441.805 - 0.419ms returns 0
T3CCC 000:441.840 JLINK_CORESIGHT_WriteAPDPReg(AP reg 0x00, 0x80000002)
T3CCC 000:442.153 - 0.313ms returns 0
T3CCC 000:442.194 JLINK_CORESIGHT_WriteAPDPReg(AP reg 0x01, 0x80011130)
T3CCC 000:442.530 - 0.336ms returns 0
T3CCC 000:442.573 JLINK_CORESIGHT_ReadAPDPReg(AP reg 0x03)
T3CCC 000:442.935   Value=0x0003CE04
T3CCC 000:442.981 - 0.408ms returns 0
T3CCC 000:443.026 JLINK_CORESIGHT_WriteAPDPReg(AP reg 0x00, 0x80000002)
T3CCC 000:443.346 - 0.320ms returns 0
T3CCC 000:443.390 JLINK_CORESIGHT_WriteAPDPReg(AP reg 0x01, 0x80011140)
T3CCC 000:443.713 - 0.323ms returns 0
T3CCC 000:443.759 JLINK_CORESIGHT_ReadAPDPReg(AP reg 0x03)
T3CCC 000:444.143   Value=0x00000002
T3CCC 000:444.191 - 0.431ms returns 0
T3CCC 000:444.227 JLINK_CORESIGHT_WriteAPDPReg(AP reg 0x00, 0x80000002)
T3CCC 000:444.543 - 0.316ms returns 0
T3CCC 000:444.587 JLINK_CORESIGHT_WriteAPDPReg(AP reg 0x01, 0x80011120)
T3CCC 000:444.922 - 0.335ms returns 0
T3CCC 000:444.965 JLINK_CORESIGHT_WriteAPDPReg(AP reg 0x03, 0x73010001)
T3CCC 000:445.307 - 0.342ms returns 0
T3CCC 000:445.351 JLINK_CORESIGHT_WriteAPDPReg(AP reg 0x00, 0x80000002)
T3CCC 000:445.668 - 0.318ms returns 0
T3CCC 000:445.709 JLINK_CORESIGHT_WriteAPDPReg(AP reg 0x01, 0x80011140)
T3CCC 000:446.026 - 0.317ms returns 0
T3CCC 000:446.067 JLINK_CORESIGHT_ReadAPDPReg(AP reg 0x03)
T3CCC 000:446.433   Value=0x00000002
T3CCC 000:446.480 - 0.411ms returns 0
T3CCC 000:446.515 JLINK_CORESIGHT_WriteAPDPReg(AP reg 0x00, 0x80000002)
T3CCC 000:446.832 - 0.317ms returns 0
T3CCC 000:446.873 JLINK_CORESIGHT_WriteAPDPReg(AP reg 0x01, 0x80011120)
T3CCC 000:447.238 - 0.365ms returns 0
T3CCC 000:447.279 JLINK_CORESIGHT_WriteAPDPReg(AP reg 0x03, 0x0000038C)
T3CCC 000:447.596 - 0.317ms returns 0
T3CCC 000:447.637 JLINK_CORESIGHT_WriteAPDPReg(AP reg 0x00, 0x80000002)
T3CCC 000:447.956 - 0.319ms returns 0
T3CCC 000:447.996 JLINK_CORESIGHT_WriteAPDPReg(AP reg 0x01, 0x80011140)
T3CCC 000:448.317 - 0.320ms returns 0
T3CCC 000:448.359 JLINK_CORESIGHT_ReadAPDPReg(AP reg 0x03)
T3CCC 000:448.730   Value=0x00000002
T3CCC 000:448.777 - 0.417ms returns 0
T3CCC 000:448.811 JLINK_CORESIGHT_ReadAPDPReg(AP reg 0x03)
T3CCC 000:449.170   Value=0x00000002
T3CCC 000:449.217 - 0.405ms returns 0
T3CCC 000:449.252 JLINK_CORESIGHT_ReadAPDPReg(AP reg 0x03)
T3CCC 000:449.616   Value=0x00000002
T3CCC 000:449.663 - 0.411ms returns 0
T3CCC 000:449.698 JLINK_CORESIGHT_ReadAPDPReg(AP reg 0x03)
T3CCC 000:450.052   Value=0x00000002
T3CCC 000:450.098 - 0.400ms returns 0
T3CCC 000:450.133 JLINK_CORESIGHT_ReadAPDPReg(AP reg 0x03)
T3CCC 000:450.518   Value=0x00000000
T3CCC 000:450.566 - 0.431ms returns 0
T3CCC 000:450.604 JLINK_CORESIGHT_WriteAPDPReg(AP reg 0x00, 0x80000002)
T3CCC 000:450.918 - 0.314ms returns 0
T3CCC 000:450.959 JLINK_CORESIGHT_WriteAPDPReg(AP reg 0x01, 0x80011130)
T3CCC 000:451.281 - 0.321ms returns 0
T3CCC 000:451.322 JLINK_CORESIGHT_ReadAPDPReg(AP reg 0x03)
T3CCC 000:451.692   Value=0x73020081
T3CCC 000:451.739 - 0.417ms returns 0
T3CCC 000:451.772 JLINK_CORESIGHT_WriteAPDPReg(AP reg 0x00, 0x80000002)
T3CCC 000:452.090 - 0.318ms returns 0
T3CCC 000:452.131 JLINK_CORESIGHT_WriteAPDPReg(AP reg 0x01, 0x80011140)
T3CCC 000:452.439 - 0.308ms returns 0
T3CCC 000:452.482 JLINK_CORESIGHT_ReadAPDPReg(AP reg 0x03)
T3CCC 000:452.885   Value=0x00000000
T3CCC 000:452.932 - 0.450ms returns 0
T3CCC 000:452.967 JLINK_CORESIGHT_WriteAPDPReg(AP reg 0x00, 0x80000002)
T3CCC 000:453.285 - 0.318ms returns 0
T3CCC 000:453.326 JLINK_CORESIGHT_WriteAPDPReg(AP reg 0x01, 0x80011130)
T3CCC 000:453.651 - 0.325ms returns 0
T3CCC 000:453.692 JLINK_CORESIGHT_ReadAPDPReg(AP reg 0x03)
T3CCC 000:454.053   Value=0x00038902
T3CCC 000:454.099 - 0.407ms returns 0
T3CCC 000:454.135 JLINK_CORESIGHT_WriteAPDPReg(AP reg 0x00, 0x80000002)
T3CCC 000:454.445 - 0.310ms returns 0
T3CCC 000:454.485 JLINK_CORESIGHT_WriteAPDPReg(AP reg 0x01, 0x80011140)
T3CCC 000:454.808 - 0.322ms returns 0
T3CCC 000:454.853 JLINK_CORESIGHT_ReadAPDPReg(AP reg 0x03)
T3CCC 000:455.215   Value=0x00000002
T3CCC 000:455.261 - 0.408ms returns 0
T3CCC 000:455.300 JLINK_CORESIGHT_WriteAPDPReg(AP reg 0x00, 0x80000002)
T3CCC 000:455.619 - 0.319ms returns 0
T3CCC 000:455.664 JLINK_CORESIGHT_WriteAPDPReg(AP reg 0x01, 0x80011120)
T3CCC 000:455.981 - 0.316ms returns 0
T3CCC 000:456.025 JLINK_CORESIGHT_WriteAPDPReg(AP reg 0x03, 0x75010001)
T3CCC 000:456.350 - 0.325ms returns 0
T3CCC 000:456.394 JLINK_CORESIGHT_WriteAPDPReg(AP reg 0x00, 0x80000002)
T3CCC 000:456.709 - 0.314ms returns 0
T3CCC 000:456.753 JLINK_CORESIGHT_WriteAPDPReg(AP reg 0x01, 0x80011140)
T3CCC 000:457.067 - 0.314ms returns 0
T3CCC 000:457.113 JLINK_CORESIGHT_ReadAPDPReg(AP reg 0x03)
T3CCC 000:457.474   Value=0x00000002
T3CCC 000:457.521 - 0.408ms returns 0
T3CCC 000:457.559 JLINK_CORESIGHT_WriteAPDPReg(AP reg 0x00, 0x80000002)
T3CCC 000:457.881 - 0.321ms returns 0
T3CCC 000:457.925 JLINK_CORESIGHT_WriteAPDPReg(AP reg 0x01, 0x80011120)
T3CCC 000:458.243 - 0.318ms returns 0
T3CCC 000:458.287 JLINK_CORESIGHT_WriteAPDPReg(AP reg 0x03, 0x0000038A)
T3CCC 000:458.611 - 0.324ms returns 0
T3CCC 000:458.656 JLINK_CORESIGHT_WriteAPDPReg(AP reg 0x00, 0x80000002)
T3CCC 000:458.974 - 0.317ms returns 0
T3CCC 000:459.018 JLINK_CORESIGHT_WriteAPDPReg(AP reg 0x01, 0x80011140)
T3CCC 000:459.328 - 0.310ms returns 0
T3CCC 000:459.374 JLINK_CORESIGHT_ReadAPDPReg(AP reg 0x03)
T3CCC 000:459.777   Value=0x00000002
T3CCC 000:459.824 - 0.449ms returns 0
T3CCC 000:459.862 JLINK_CORESIGHT_ReadAPDPReg(AP reg 0x03)
T3CCC 000:460.262   Value=0x00000002
T3CCC 000:460.309 - 0.447ms returns 0
T3CCC 000:460.347 JLINK_CORESIGHT_ReadAPDPReg(AP reg 0x03)
T3CCC 000:460.707   Value=0x00000002
T3CCC 000:460.754 - 0.406ms returns 0
T3CCC 000:460.792 JLINK_CORESIGHT_ReadAPDPReg(AP reg 0x03)
T3CCC 000:461.151   Value=0x00000000
T3CCC 000:461.198 - 0.405ms returns 0
T3CCC 000:461.237 JLINK_CORESIGHT_WriteAPDPReg(AP reg 0x00, 0x80000002)
T3CCC 000:461.565 - 0.324ms returns 0
T3CCC 000:461.610 JLINK_CORESIGHT_WriteAPDPReg(AP reg 0x01, 0x80011130)
T3CCC 000:461.923 - 0.313ms returns 0
T3CCC 000:461.967 JLINK_CORESIGHT_ReadAPDPReg(AP reg 0x03)
T3CCC 000:462.331   Value=0x75020081
T3CCC 000:462.378 - 0.410ms returns 0
T3CCC 000:462.414 JLINK_CORESIGHT_WriteAPDPReg(AP reg 0x00, 0x80000002)
T3CCC 000:462.735 - 0.320ms returns 0
T3CCC 000:462.779 JLINK_CORESIGHT_WriteAPDPReg(AP reg 0x01, 0x80011140)
T3CCC 000:463.100 - 0.320ms returns 0
T3CCC 000:463.145 JLINK_CORESIGHT_ReadAPDPReg(AP reg 0x03)
T3CCC 000:463.622   Value=0x00000000
T3CCC 000:463.669 - 0.523ms returns 0
T3CCC 000:463.707 JLINK_CORESIGHT_WriteAPDPReg(AP reg 0x00, 0x80000002)
T3CCC 000:464.029 - 0.321ms returns 0
T3CCC 000:464.073 JLINK_CORESIGHT_WriteAPDPReg(AP reg 0x01, 0x80011130)
T3CCC 000:464.420 - 0.347ms returns 0
T3CCC 000:464.463 JLINK_CORESIGHT_ReadAPDPReg(AP reg 0x03)
T3CCC 000:464.860   Value=0x00038702
T3CCC 000:464.907 - 0.443ms returns 0
T3CCC 000:464.952 JLINK_CORESIGHT_WriteAPDPReg(AP reg 0x00, 0x80000002)
T3CCC 000:465.287 - 0.334ms returns 0
T3CCC 000:465.331 JLINK_CORESIGHT_WriteAPDPReg(AP reg 0x01, 0x80011140)
T3CCC 000:465.661 - 0.331ms returns 0
T3CCC 000:465.706 JLINK_CORESIGHT_ReadAPDPReg(AP reg 0x03)
T3CCC 000:466.080   Value=0x00000002
T3CCC 000:466.128 - 0.421ms returns 0
T3CCC 000:466.167 JLINK_CORESIGHT_WriteAPDPReg(AP reg 0x00, 0x80000002)
T3CCC 000:466.526 - 0.359ms returns 0
T3CCC 000:466.574 JLINK_CORESIGHT_WriteAPDPReg(AP reg 0x01, 0x80011120)
T3CCC 000:466.902 - 0.328ms returns 0
T3CCC 000:466.946 JLINK_CORESIGHT_WriteAPDPReg(AP reg 0x03, 0x4F010001)
T3CCC 000:467.267 - 0.319ms returns 0
T3CCC 000:467.311 JLINK_CORESIGHT_WriteAPDPReg(AP reg 0x00, 0x80000002)
T3CCC 000:467.633 - 0.321ms returns 0
T3CCC 000:467.677 JLINK_CORESIGHT_WriteAPDPReg(AP reg 0x01, 0x80011140)
T3CCC 000:467.997 - 0.319ms returns 0
T3CCC 000:468.045 JLINK_CORESIGHT_ReadAPDPReg(AP reg 0x03)
T3CCC 000:468.424   Value=0x00000002
T3CCC 000:468.472 - 0.425ms returns 0
T3CCC 000:468.513 JLINK_CORESIGHT_WriteAPDPReg(AP reg 0x00, 0x80000002)
T3CCC 000:468.838 - 0.324ms returns 0
T3CCC 000:468.883 JLINK_CORESIGHT_WriteAPDPReg(AP reg 0x01, 0x80011120)
T3CCC 000:469.194 - 0.311ms returns 0
T3CCC 000:469.238 JLINK_CORESIGHT_WriteAPDPReg(AP reg 0x03, 0x000003B0)
T3CCC 000:469.557 - 0.318ms returns 0
T3CCC 000:469.604 JLINK_CORESIGHT_WriteAPDPReg(AP reg 0x00, 0x80000002)
T3CCC 000:469.924 - 0.319ms returns 0
T3CCC 000:469.968 JLINK_CORESIGHT_WriteAPDPReg(AP reg 0x01, 0x80011140)
T3CCC 000:470.283 - 0.315ms returns 0
T3CCC 000:470.329 JLINK_CORESIGHT_ReadAPDPReg(AP reg 0x03)
T3CCC 000:470.717   Value=0x00000002
T3CCC 000:470.764 - 0.434ms returns 0
T3CCC 000:470.802 JLINK_CORESIGHT_ReadAPDPReg(AP reg 0x03)
T3CCC 000:471.155   Value=0x00000000
T3CCC 000:471.202 - 0.400ms returns 0
T3CCC 000:471.241 JLINK_CORESIGHT_WriteAPDPReg(AP reg 0x00, 0x80000002)
T3CCC 000:471.561 - 0.317ms returns 0
T3CCC 000:471.607 JLINK_CORESIGHT_WriteAPDPReg(AP reg 0x01, 0x80011130)
T3CCC 000:471.921 - 0.314ms returns 0
T3CCC 000:471.965 JLINK_CORESIGHT_ReadAPDPReg(AP reg 0x03)
T3CCC 000:472.338   Value=0x4F0B0081
T3CCC 000:472.390 - 0.424ms returns 0
T3CCC 000:472.427 JLINK_CORESIGHT_WriteAPDPReg(AP reg 0x00, 0x80000002)
T3CCC 000:472.744 - 0.317ms returns 0
T3CCC 000:472.788 JLINK_CORESIGHT_WriteAPDPReg(AP reg 0x01, 0x80011140)
T3CCC 000:473.099 - 0.310ms returns 0
T3CCC 000:473.144 JLINK_CORESIGHT_ReadAPDPReg(AP reg 0x03)
T3CCC 000:473.626   Value=0x00000000
T3CCC 000:473.672 - 0.528ms returns 0
T3CCC 000:473.711 JLINK_CORESIGHT_WriteAPDPReg(AP reg 0x00, 0x80000002)
T3CCC 000:474.029 - 0.317ms returns 0
T3CCC 000:474.073 JLINK_CORESIGHT_WriteAPDPReg(AP reg 0x01, 0x80011130)
T3CCC 000:474.425 - 0.352ms returns 0
T3CCC 000:474.469 JLINK_CORESIGHT_ReadAPDPReg(AP reg 0x03)
T3CCC 000:474.839   Value=0x40020000
T3CCC 000:474.886 - 0.417ms returns 0
T3CCC 000:474.923 JLINK_CORESIGHT_WriteAPDPReg(AP reg 0x00, 0x80000002)
T3CCC 000:475.233 - 0.309ms returns 0
T3CCC 000:475.277 JLINK_CORESIGHT_WriteAPDPReg(AP reg 0x01, 0x80011140)
T3CCC 000:475.595 - 0.318ms returns 0
T3CCC 000:475.640 JLINK_CORESIGHT_ReadAPDPReg(AP reg 0x03)
T3CCC 000:476.010   Value=0x00000000
T3CCC 000:476.057 - 0.416ms returns 0
T3CCC 000:476.096 JLINK_CORESIGHT_WriteAPDPReg(AP reg 0x00, 0x80000002)
T3CCC 000:476.421 - 0.325ms returns 0
T3CCC 000:476.465 JLINK_CORESIGHT_WriteAPDPReg(AP reg 0x01, 0x80011130)
T3CCC 000:476.819 - 0.354ms returns 0
T3CCC 000:476.862 JLINK_CORESIGHT_ReadAPDPReg(AP reg 0x03)
T3CCC 000:477.223   Value=0x00000000
T3CCC 000:477.270 - 0.407ms returns 0
T3CCC 000:477.307 JLINK_CORESIGHT_WriteAPDPReg(AP reg 0x00, 0x80000002)
T3CCC 000:477.624 - 0.316ms returns 0
T3CCC 000:477.668 JLINK_CORESIGHT_WriteAPDPReg(AP reg 0x01, 0x80011140)
T3CCC 000:477.984 - 0.316ms returns 0
T3CCC 000:478.029 JLINK_CORESIGHT_ReadAPDPReg(AP reg 0x03)
T3CCC 000:478.447   Value=0x00000000
T3CCC 000:478.494 - 0.465ms returns 0
T3CCC 000:478.533 JLINK_CORESIGHT_WriteAPDPReg(AP reg 0x00, 0x80000002)
T3CCC 000:478.853 - 0.319ms returns 0
T3CCC 000:478.896 JLINK_CORESIGHT_WriteAPDPReg(AP reg 0x01, 0x80011130)
T3CCC 000:479.211 - 0.314ms returns 0
T3CCC 000:479.254 JLINK_CORESIGHT_ReadAPDPReg(AP reg 0x03)
T3CCC 000:479.638   Value=0x03640000
T3CCC 000:479.684 - 0.429ms returns 0
T3CCC 000:480.774 JLINK_CORESIGHT_ReadAPDPReg(DP reg 0x01)
T3CCC 000:481.094   Value=0xF0000F40
T3CCC 000:481.141 - 0.367ms returns 0
T3CCC 000:481.174 JLINK_CORESIGHT_WriteAPDPReg(DP reg 0x01, 0xA0000F40)
T3CCC 000:481.550 - 0.376ms returns 0
T3CCC 000:481.601 JLINK_CORESIGHT_ReadAPDPReg(DP reg 0x01)
T3CCC 000:481.968   Value=0x00000F40
T3CCC 000:482.014 - 0.413ms returns 0
T3CCC 000:482.047 JLINK_ClrRESET()
T3CCC 000:482.473 - 0.423ms 
T3CCC 000:585.964 JLINK_Close()
T3CCC 000:598.595 - 12.628ms
T3CCC 000:598.674   
T3CCC 000:598.700   Closed
